
**** 12/20/10 16:07:48 ********* PSpice 9.2 (Mar 2000) ******** ID# 1 ********

 ** Profile: "SCHEMATIC1-Bias"  [ D:\09300720075\1_6_9-schematic1-bias.sim ] 


 ****     CIRCUIT DESCRIPTION


******************************************************************************




** Creating circuit file "1_6_9-schematic1-bias.sim.cir" 
** WARNING: THIS AUTOMATICALLY GENERATED FILE MAY BE OVERWRITTEN BY SUBSEQUENT SIMULATIONS

*Libraries: 
* Local Libraries :
* From [PSPICE NETLIST] section of C:\Program Files\Orcad\PSpice\PSpice.ini file:
.lib "nom.lib" 

*Analysis directives: 
.AC DEC 100 1 100meg
.PROBE V(*) I(*) W(*) D(*) NOISE(*) 
.INC ".\1_6_9-SCHEMATIC1.net" 



**** INCLUDING 1_6_9-SCHEMATIC1.net ****
* source 1_6_9
R_R1         N00779 N00806  22k  
R_R2         N00745 N00779  11k  
R_R3         0 N00946  10k  
R_R4         N00946 N00879  10k  
C_C1         N00779 N00879  1000p  
C_C2         0 N00806  1000p  
X_U2         N00806 N00946 N01178 N01136 N00879 uA741
V_V1         N01178 0 12Vdc
V_V2         0 N01136 12Vdc
V_V3         N00745 0 DC 0Vdc AC 1Vac 

**** RESUMING 1_6_9-schematic1-bias.sim.cir ****
.END

**** 12/20/10 16:07:48 ********* PSpice 9.2 (Mar 2000) ******** ID# 1 ********

 ** Profile: "SCHEMATIC1-Bias"  [ D:\09300720075\1_6_9-schematic1-bias.sim ] 


 ****     Diode MODEL PARAMETERS


******************************************************************************




               X_U2.dx         X_U2.dy         
          IS  800.000000E-18  800.000000E-18 
          RS    1               1.000000E-03 
         CJO                   10.000000E-12 


**** 12/20/10 16:07:48 ********* PSpice 9.2 (Mar 2000) ******** ID# 1 ********

 ** Profile: "SCHEMATIC1-Bias"  [ D:\09300720075\1_6_9-schematic1-bias.sim ] 


 ****     BJT MODEL PARAMETERS


******************************************************************************




               X_U2.qx         
               NPN             
          IS  800.000000E-18 
          BF   93.75         
          NF    1            
          BR    1            
          NR    1            
          CN    2.42         
           D     .87         


**** 12/20/10 16:07:48 ********* PSpice 9.2 (Mar 2000) ******** ID# 1 ********

 ** Profile: "SCHEMATIC1-Bias"  [ D:\09300720075\1_6_9-schematic1-bias.sim ] 


 ****     SMALL SIGNAL BIAS SOLUTION       TEMPERATURE =   27.000 DEG C


******************************************************************************



 NODE   VOLTAGE     NODE   VOLTAGE     NODE   VOLTAGE     NODE   VOLTAGE


(N00745)    0.0000 (N00779)-877.0E-06 (N00806)    -.0026 (N00879)    -.0044     

(N00946)    -.0026 (N01136)  -12.0000 (N01178)   12.0000 (X_U2.6) 419.5E-09     

(X_U2.7)    -.0044 (X_U2.8)    -.0044 (X_U2.9)    0.0000 (X_U2.10)    -.6103    

(X_U2.11)   11.9600                   (X_U2.12)   11.9600                       

(X_U2.13)    -.5964                   (X_U2.14)    -.5964                       

(X_U2.53)   11.0000                   (X_U2.54)  -11.0000                       

(X_U2.90)-181.4E-06                   (X_U2.91)   40.0000                       

(X_U2.92)  -40.0000                   (X_U2.99)    0.0000                   




    VOLTAGE SOURCE CURRENTS
    NAME         CURRENT

    V_V1        -1.337E-03
    V_V2        -1.337E-03
    V_V3        -7.972E-08
    X_U2.vb      4.195E-12
    X_U2.vc      1.101E-11
    X_U2.ve      1.091E-11
    X_U2.vlim   -1.814E-07
    X_U2.vlp    -4.000E-11
    X_U2.vln    -4.000E-11

    TOTAL POWER DISSIPATION   3.21E-02  WATTS



          JOB CONCLUDED

          TOTAL JOB TIME             .27
