
**** 12/20/10 16:19:42 ********* PSpice 9.2 (Mar 2000) ******** ID# 1 ********

 ** Profile: "SCHEMATIC1-Bias"  [ D:\09300720075\1_6_9_high-schematic1-bias.sim ] 


 ****     CIRCUIT DESCRIPTION


******************************************************************************




** Creating circuit file "1_6_9_high-schematic1-bias.sim.cir" 
** WARNING: THIS AUTOMATICALLY GENERATED FILE MAY BE OVERWRITTEN BY SUBSEQUENT SIMULATIONS

*Libraries: 
* Local Libraries :
* From [PSPICE NETLIST] section of C:\Program Files\Orcad\PSpice\PSpice.ini file:
.lib "nom.lib" 

*Analysis directives: 
.AC DEC 100 1 100meg
.PROBE V(*) I(*) W(*) D(*) NOISE(*) 
.INC ".\1_6_9_high-SCHEMATIC1.net" 



**** INCLUDING 1_6_9_high-SCHEMATIC1.net ****
* source 1_6_9_HIGH
C_C2         N00806 N00806  1000p  
R_R1         N00806 N01000  11k  
R_R2         0 N00806  22k  
X_U2         N00806 N00973 N01193 N01151 N01000 uA741
R_R3         N00973 0  1g  
R_R4         N01000 N00973  10k  
V_V1         N01193 0 12Vdc
V_V2         0 N01151 12Vdc
V_V3         N00701 0 DC 0Vdc AC 1Vac 
C_C1         N00701 N00806  1000p  

**** RESUMING 1_6_9_high-schematic1-bias.sim.cir ****
.END

**** 12/20/10 16:19:42 ********* PSpice 9.2 (Mar 2000) ******** ID# 1 ********

 ** Profile: "SCHEMATIC1-Bias"  [ D:\09300720075\1_6_9_high-schematic1-bias.sim ] 


 ****     Diode MODEL PARAMETERS


******************************************************************************




               X_U2.dx         X_U2.dy         
          IS  800.000000E-18  800.000000E-18 
          RS    1               1.000000E-03 
         CJO                   10.000000E-12 


**** 12/20/10 16:19:42 ********* PSpice 9.2 (Mar 2000) ******** ID# 1 ********

 ** Profile: "SCHEMATIC1-Bias"  [ D:\09300720075\1_6_9_high-schematic1-bias.sim ] 


 ****     BJT MODEL PARAMETERS


******************************************************************************




               X_U2.qx         
               NPN             
          IS  800.000000E-18 
          BF   93.75         
          NF    1            
          BR    1            
          NR    1            
          CN    2.42         
           D     .87         


**** 12/20/10 16:19:42 ********* PSpice 9.2 (Mar 2000) ******** ID# 1 ********

 ** Profile: "SCHEMATIC1-Bias"  [ D:\09300720075\1_6_9_high-schematic1-bias.sim ] 


 ****     SMALL SIGNAL BIAS SOLUTION       TEMPERATURE =   27.000 DEG C


******************************************************************************



 NODE   VOLTAGE     NODE   VOLTAGE     NODE   VOLTAGE     NODE   VOLTAGE


(N00701)    0.0000 (N00806)-120.2E-06 (N00973)-100.9E-06 (N01000) 696.7E-06     

(N01151)  -12.0000 (N01193)   12.0000 (X_U2.6)-68.13E-09 (X_U2.7) 704.4E-06     

(X_U2.8) 704.4E-06 (X_U2.9)    0.0000 (X_U2.10)    -.6078                       

(X_U2.11)   11.9600                   (X_U2.12)   11.9600                       

(X_U2.13)    -.5939                   (X_U2.14)    -.5939                       

(X_U2.53)   11.0000                   (X_U2.54)  -11.0000                       

(X_U2.90) 154.0E-06                   (X_U2.91)   40.0000                       

(X_U2.92)  -40.0000                   (X_U2.99)    0.0000                   




    VOLTAGE SOURCE CURRENTS
    NAME         CURRENT

    V_V1        -1.337E-03
    V_V2        -1.337E-03
    V_V3         0.000E+00
    X_U2.vb     -6.813E-13
    X_U2.vc      1.100E-11
    X_U2.ve      1.091E-11
    X_U2.vlim    1.540E-07
    X_U2.vlp    -4.000E-11
    X_U2.vln    -4.000E-11

    TOTAL POWER DISSIPATION   3.21E-02  WATTS



          JOB CONCLUDED

          TOTAL JOB TIME             .27
