
**** 12/19/10 23:38:33 ********* PSpice 9.2 (Mar 2000) ******** ID# 1 ********

 ** Profile: "SCHEMATIC1-Bias"  [ C:\Users\deng\Desktop\\experiments\09300720075\1_6sr-schematic1-bias.sim ] 


 ****     CIRCUIT DESCRIPTION


******************************************************************************




** Creating circuit file "1_6sr-schematic1-bias.sim.cir" 
** WARNING: THIS AUTOMATICALLY GENERATED FILE MAY BE OVERWRITTEN BY SUBSEQUENT SIMULATIONS

*Libraries: 
* Local Libraries :
* From [PSPICE NETLIST] section of d:\orcad92\PSpice\PSpice.ini file:
.lib "nom.lib" 

*Analysis directives: 
.TRAN  0 400us 0 0.1u 
.PROBE V(*) I(*) W(*) D(*) NOISE(*) 
.INC ".\1_6sr-SCHEMATIC1.net" 



**** INCLUDING 1_6sr-SCHEMATIC1.net ****
* source 1_6SR
X_U2         N00852 N00813 N01136 N01000 N01088 uA741
R_R1         N00813 N01088  10k  
R_R2         N00759 N00813  10k  
R_R3         0 N00852  5.1k  
V_V1         N01136 0 12Vdc
V_V2         0 N01000 12Vdc
V_V4         N00759 0  
+SIN 0 4 20k 0 0 0

**** RESUMING 1_6sr-schematic1-bias.sim.cir ****
.END

**** 12/19/10 23:38:33 ********* PSpice 9.2 (Mar 2000) ******** ID# 1 ********

 ** Profile: "SCHEMATIC1-Bias"  [ C:\Users\deng\Desktop\\experiments\09300720075\1_6sr-schematic1-bias.sim ] 


 ****     Diode MODEL PARAMETERS


******************************************************************************




               X_U2.dx         X_U2.dy         
          IS  800.000000E-18  800.000000E-18 
          RS    1               1.000000E-03 
         CJO                   10.000000E-12 


**** 12/19/10 23:38:33 ********* PSpice 9.2 (Mar 2000) ******** ID# 1 ********

 ** Profile: "SCHEMATIC1-Bias"  [ C:\Users\deng\Desktop\\experiments\09300720075\1_6sr-schematic1-bias.sim ] 


 ****     BJT MODEL PARAMETERS


******************************************************************************




               X_U2.qx         
               NPN             
          IS  800.000000E-18 
          BF   93.75         
          NF    1            
          BR    1            
          NR    1            
          CN    2.42         
           D     .87         


**** 12/19/10 23:38:33 ********* PSpice 9.2 (Mar 2000) ******** ID# 1 ********

 ** Profile: "SCHEMATIC1-Bias"  [ C:\Users\deng\Desktop\\experiments\09300720075\1_6sr-schematic1-bias.sim ] 


 ****     INITIAL TRANSIENT SOLUTION       TEMPERATURE =   27.000 DEG C


******************************************************************************



 NODE   VOLTAGE     NODE   VOLTAGE     NODE   VOLTAGE     NODE   VOLTAGE


(N00759)    0.0000 (N00813)-387.3E-06 (N00852)-406.6E-06 (N01000)  -12.0000     

(N01088) 22.97E-06 (N01136)   12.0000 (X_U2.6)-3.007E-09 (X_U2.7) 25.02E-06     

(X_U2.8) 25.02E-06 (X_U2.9)    0.0000 (X_U2.10)    -.6081                       

(X_U2.11)   11.9600                   (X_U2.12)   11.9600                       

(X_U2.13)    -.5942                   (X_U2.14)    -.5942                       

(X_U2.53)   11.0000                   (X_U2.54)  -11.0000                       

(X_U2.90) 41.03E-06                   (X_U2.91)   40.0000                       

(X_U2.92)  -40.0000                   (X_U2.99)    0.0000                   




    VOLTAGE SOURCE CURRENTS
    NAME         CURRENT

    V_V1        -1.337E-03
    V_V2        -1.337E-03
    V_V4        -3.873E-08
    X_U2.vb     -3.007E-14
    X_U2.vc      1.100E-11
    X_U2.ve      1.091E-11
    X_U2.vlim    4.103E-08
    X_U2.vlp    -4.000E-11
    X_U2.vln    -4.000E-11

    TOTAL POWER DISSIPATION   3.21E-02  WATTS



          JOB CONCLUDED

          TOTAL JOB TIME             .92
