
**** 11/29/10 16:21:40 ********* PSpice 9.2 (Mar 2000) ******** ID# 1 ********

 ** Profile: "SCHEMATIC1-Bias"  [ D:\09300720075\1_3_1-schematic1-bias.sim ] 


 ****     CIRCUIT DESCRIPTION


******************************************************************************




** Creating circuit file "1_3_1-schematic1-bias.sim.cir" 
** WARNING: THIS AUTOMATICALLY GENERATED FILE MAY BE OVERWRITTEN BY SUBSEQUENT SIMULATIONS

*Libraries: 
* Local Libraries :
* From [PSPICE NETLIST] section of C:\Program Files\Orcad\PSpice\PSpice.ini file:
.lib "nom.lib" 

*Analysis directives: 
.TRAN  0 0.1m 0 0.0001m 
.PROBE V(*) I(*) W(*) D(*) NOISE(*) 
.INC ".\1_3_1-SCHEMATIC1.net" 



**** INCLUDING 1_3_1-SCHEMATIC1.net ****
* source 1_3_1
C_C5         0 N02265  100u  
R_R2         N02294 N01723  11k  
C_C6         0 N02015  100u  
R_R3         N02236 N01723  24  
R_R4         N02015 N01723  12k  
R_R5         N01966 N01723  430  
V_V2         N01723 0 12Vdc
C_C1         N01297 N02294  10u  
R_R6         N01936 N01723  2k  
C_C2         N02236 N02096  10u  
C_C7         N01688 N08666  1n  
R_R7         0 N01936  6.2k  
C_C3         N01966 N01936  10u  
V_V4         N01297 0  
+SIN 0 0.5m 100k 0 0 0
R_R8         0 N01688  620  
R_R14         0 N08666  1g  
R_R9         0 N02096  150  
Q_Q1         N02236 N02294 N02265 Q2N2222
R_R10         0 N02015  3.6k  
Q_Q2         N01966 N02015 N02096 Q2N2222
R_R11         0 N02265  300  
Q_Q3         N01723 N01936 N01688 Q2N2222
R_R12         0 N02294  18k  

**** RESUMING 1_3_1-schematic1-bias.sim.cir ****
.END

**** 11/29/10 16:21:40 ********* PSpice 9.2 (Mar 2000) ******** ID# 1 ********

 ** Profile: "SCHEMATIC1-Bias"  [ D:\09300720075\1_3_1-schematic1-bias.sim ] 


 ****     BJT MODEL PARAMETERS


******************************************************************************




               Q2N2222         
               NPN             
          IS   14.340000E-15 
          BF  255.9          
          NF    1            
         VAF   74.03         
         IKF     .2847       
         ISE   14.340000E-15 
          NE    1.307        
          BR    6.092        
          NR    1            
          RB   10            
          RC    1            
         CJE   22.010000E-12 
         MJE     .377        
         CJC    7.306000E-12 
         MJC     .3416       
          TF  411.100000E-12 
         XTF    3            
         VTF    1.7          
         ITF     .6          
          TR   46.910000E-09 
         XTB    1.5          
          CN    2.42         
           D     .87         


**** 11/29/10 16:21:40 ********* PSpice 9.2 (Mar 2000) ******** ID# 1 ********

 ** Profile: "SCHEMATIC1-Bias"  [ D:\09300720075\1_3_1-schematic1-bias.sim ] 


 ****     INITIAL TRANSIENT SOLUTION       TEMPERATURE =   27.000 DEG C


******************************************************************************



 NODE   VOLTAGE     NODE   VOLTAGE     NODE   VOLTAGE     NODE   VOLTAGE


(N01297)    0.0000 (N01688)    8.2502 (N01723)   12.0000 (N01936)    8.9636     

(N01966)    6.6627 (N02015)    2.5832 (N02096)    1.8719 (N02236)   11.5220     

(N02265)    6.0014 (N02294)    6.7257 (N08666)    0.0000 




    VOLTAGE SOURCE CURRENTS
    NAME         CURRENT

    V_V2        -4.833E-02
    V_V4         0.000E+00

    TOTAL POWER DISSIPATION   5.80E-01  WATTS



          JOB CONCLUDED

          TOTAL JOB TIME             .31
