
**** 12/19/10 20:50:17 ********* PSpice 9.2 (Mar 2000) ******** ID# 1 ********

 ** Profile: "SCHEMATIC1-Bias"  [ C:\Users\deng\Desktop\\experiments\09300720075\1_4_2-schematic1-bias.sim ] 


 ****     CIRCUIT DESCRIPTION


******************************************************************************




** Creating circuit file "1_4_2-schematic1-bias.sim.cir" 
** WARNING: THIS AUTOMATICALLY GENERATED FILE MAY BE OVERWRITTEN BY SUBSEQUENT SIMULATIONS

*Libraries: 
* Local Libraries :
* From [PSPICE NETLIST] section of d:\orcad92\PSpice\PSpice.ini file:
.lib "nom.lib" 

*Analysis directives: 
.TRAN  0 5s 0 0.005 
.PROBE V(*) I(*) W(*) D(*) NOISE(*) 
.INC ".\1_4_2-SCHEMATIC1.net" 



**** INCLUDING 1_4_2-SCHEMATIC1.net ****
* source 1_4_2
Q_Q3         N01129 N01872 N01808 Q2N2222
V_V5         0 N00883 6Vdc
R_R2         N00994 N00774  620  
Q_Q4         N01872 N01872 N01779 Q2N2222
R_R1         N00994 N00965  5.1k  
R_R3         N00965 N00774  620  
R_R4         N00883 N01808  51  
Q_Q2         N00965 N01089 N01129 Q2N2222
V_V1         N01258 N01193  
+SIN 0 0 1 0 0 0
V_V2         N01193 0  
+SIN 0 0.25 1 0 0 0
V_V3         N01193 N01089  
+SIN 0 0 1 0 0 0
R_R5         N01872 N00774  910  
Q_Q1         N00994 N01258 N01129 Q2N2222
R_R6         N00883 N01779  51  
V_V4         N00774 0 6Vdc

**** RESUMING 1_4_2-schematic1-bias.sim.cir ****
.END

**** 12/19/10 20:50:17 ********* PSpice 9.2 (Mar 2000) ******** ID# 1 ********

 ** Profile: "SCHEMATIC1-Bias"  [ C:\Users\deng\Desktop\\experiments\09300720075\1_4_2-schematic1-bias.sim ] 


 ****     BJT MODEL PARAMETERS


******************************************************************************




               Q2N2222         
               NPN             
          IS   14.340000E-15 
          BF  255.9          
          NF    1            
         VAF   74.03         
         IKF     .2847       
         ISE   14.340000E-15 
          NE    1.307        
          BR    6.092        
          NR    1            
          RB   10            
          RC    1            
         CJE   22.010000E-12 
         MJE     .377        
         CJC    7.306000E-12 
         MJC     .3416       
          TF  411.100000E-12 
         XTF    3            
         VTF    1.7          
         ITF     .6          
          TR   46.910000E-09 
         XTB    1.5          
          CN    2.42         
           D     .87         


**** 12/19/10 20:50:17 ********* PSpice 9.2 (Mar 2000) ******** ID# 1 ********

 ** Profile: "SCHEMATIC1-Bias"  [ C:\Users\deng\Desktop\\experiments\09300720075\1_4_2-schematic1-bias.sim ] 


 ****     INITIAL TRANSIENT SOLUTION       TEMPERATURE =   27.000 DEG C


******************************************************************************



 NODE   VOLTAGE     NODE   VOLTAGE     NODE   VOLTAGE     NODE   VOLTAGE


(N00774)    6.0000 (N00883)   -6.0000 (N00965)    2.4087 (N00994)    2.4087     

(N01089)    0.0000 (N01129)    -.6912 (N01193)    0.0000 (N01258)    0.0000     

(N01779)   -5.4039 (N01808)   -5.4026 (N01872)   -4.6930 




    VOLTAGE SOURCE CURRENTS
    NAME         CURRENT

    V_V5        -2.340E-02
    V_V1        -3.313E-05
    V_V2        -6.627E-05
    V_V3         3.313E-05
    V_V4        -2.334E-02

    TOTAL POWER DISSIPATION   2.80E-01  WATTS



          JOB CONCLUDED

          TOTAL JOB TIME             .33
