
**** 12/06/10 15:12:57 ********* PSpice 9.2 (Mar 2000) ******** ID# 1 ********

 ** Profile: "SCHEMATIC1-Bias"  [ D:\09300720075\1_4_1-schematic1-bias.sim ] 


 ****     CIRCUIT DESCRIPTION


******************************************************************************




** Creating circuit file "1_4_1-schematic1-bias.sim.cir" 
** WARNING: THIS AUTOMATICALLY GENERATED FILE MAY BE OVERWRITTEN BY SUBSEQUENT SIMULATIONS

*Libraries: 
* Local Libraries :
* From [PSPICE NETLIST] section of C:\Program Files\Orcad\PSpice\PSpice.ini file:
.lib "nom.lib" 

*Analysis directives: 
.TRAN  0 5s 0 0.005 
.PROBE V(*) I(*) W(*) D(*) NOISE(*) 
.INC ".\1_4_1-SCHEMATIC1.net" 



**** INCLUDING 1_4_1-SCHEMATIC1.net ****
* source 1_4_1
R_R1         N00994 N00965  6.8k  
V_V5         0 N00883 6Vdc
R_R2         N00994 N00774  620  
R_R3         N00965 N00774  620  
R_R4         N00883 N01129  560  
V_V1         N01236 N01193  
+SIN 0 5m 1 0 0 0
V_V2         N01193 0  
+SIN 0 0 1 0 0 0
V_V3         N01193 N01089  
+SIN 0 5m 1 0 0 0
Q_Q1         N00994 N01236 N01129 Q2N2222
Q_Q2         N00965 N01089 N01129 Q2N2222
V_V4         N00774 0 6Vdc

**** RESUMING 1_4_1-schematic1-bias.sim.cir ****
.END

**** 12/06/10 15:12:57 ********* PSpice 9.2 (Mar 2000) ******** ID# 1 ********

 ** Profile: "SCHEMATIC1-Bias"  [ D:\09300720075\1_4_1-schematic1-bias.sim ] 


 ****     BJT MODEL PARAMETERS


******************************************************************************




               Q2N2222         
               NPN             
          IS   14.340000E-15 
          BF  255.9          
          NF    1            
         VAF   74.03         
         IKF     .2847       
         ISE   14.340000E-15 
          NE    1.307        
          BR    6.092        
          NR    1            
          RB   10            
          RC    1            
         CJE   22.010000E-12 
         MJE     .377        
         CJC    7.306000E-12 
         MJC     .3416       
          TF  411.100000E-12 
         XTF    3            
         VTF    1.7          
         ITF     .6          
          TR   46.910000E-09 
         XTB    1.5          
          CN    2.42         
           D     .87         


**** 12/06/10 15:12:57 ********* PSpice 9.2 (Mar 2000) ******** ID# 1 ********

 ** Profile: "SCHEMATIC1-Bias"  [ D:\09300720075\1_4_1-schematic1-bias.sim ] 


 ****     INITIAL TRANSIENT SOLUTION       TEMPERATURE =   27.000 DEG C


******************************************************************************



 NODE   VOLTAGE     NODE   VOLTAGE     NODE   VOLTAGE     NODE   VOLTAGE


(N00774)    6.0000 (N00883)   -6.0000 (N00965)    3.0749 (N00994)    3.0749     

(N01089)    0.0000 (N01129)    -.6855 (N01193)    0.0000 (N01236)    0.0000 




    VOLTAGE SOURCE CURRENTS
    NAME         CURRENT

    V_V5        -9.490E-03
    V_V1        -2.711E-05
    V_V2        -5.422E-05
    V_V3         2.711E-05
    V_V4        -9.436E-03

    TOTAL POWER DISSIPATION   1.14E-01  WATTS



          JOB CONCLUDED

          TOTAL JOB TIME             .22
