
**** 12/10/10 20:19:18 ********* PSpice 9.2 (Mar 2000) ******** ID# 1 ********

 ** Profile: "SCHEMATIC1-Bias"  [ C:\Users\deng\Desktop\\experiments\09300720075\1_5_3_2-schematic1-bias.sim ] 


 ****     CIRCUIT DESCRIPTION


******************************************************************************




** Creating circuit file "1_5_3_2-schematic1-bias.sim.cir" 
** WARNING: THIS AUTOMATICALLY GENERATED FILE MAY BE OVERWRITTEN BY SUBSEQUENT SIMULATIONS

*Libraries: 
* Local Libraries :
* From [PSPICE NETLIST] section of d:\orcad92\PSpice\PSpice.ini file:
.lib "nom.lib" 

*Analysis directives: 
.AC DEC 100 1 100meg
.PROBE V(*) I(*) W(*) D(*) NOISE(*) 
.INC ".\1_5_3_2-SCHEMATIC1.net" 



**** INCLUDING 1_5_3_2-SCHEMATIC1.net ****
* source 1_5_3_2
R_R11         N02543 N024160  47  
C_C2         0 N01483  100u  
R_R2         0 N01232  430k  
C_C3         0 N01021  100u  
R_R12         0 N02543  5.1k  
R_R3         N01425 N00920  2k  
C_C4         N01589 N00992  10u  
C_C6         0 N02543  100u  
R_R4         N01483 N01454  47  
C_C5         N01652 N01425  10u  
R_R5         0 N01483  5.1k  
Q_Q1         N01425 N01232 N01454 Q2N2222
R_R10         N024160 N01589  0.001  
R_R6         0 N01652  3.9k  
Q_Q2         N00992 N01652 N01021 Q2N2222
R_R7         N01652 N00920  24k  
V_V1         N00920 0 12Vdc
R_R8         N00992 N00920  1.2k  
R_R1         N01232 N00920  130k  
R_R9         0 N01021  220  
V_V2         N01216 0 DC 0Vdc AC 1mVac 
C_C1         N01216 N01232  10u  

**** RESUMING 1_5_3_2-schematic1-bias.sim.cir ****
.END

**** 12/10/10 20:19:18 ********* PSpice 9.2 (Mar 2000) ******** ID# 1 ********

 ** Profile: "SCHEMATIC1-Bias"  [ C:\Users\deng\Desktop\\experiments\09300720075\1_5_3_2-schematic1-bias.sim ] 


 ****     BJT MODEL PARAMETERS


******************************************************************************




               Q2N2222         
               NPN             
          IS   14.340000E-15 
          BF  255.9          
          NF    1            
         VAF   74.03         
         IKF     .2847       
         ISE   14.340000E-15 
          NE    1.307        
          BR    6.092        
          NR    1            
          RB   10            
          RC    1            
         CJE   22.010000E-12 
         MJE     .377        
         CJC    7.306000E-12 
         MJC     .3416       
          TF  411.100000E-12 
         XTF    3            
         VTF    1.7          
         ITF     .6          
          TR   46.910000E-09 
         XTB    1.5          
          CN    2.42         
           D     .87         


**** 12/10/10 20:19:18 ********* PSpice 9.2 (Mar 2000) ******** ID# 1 ********

 ** Profile: "SCHEMATIC1-Bias"  [ C:\Users\deng\Desktop\\experiments\09300720075\1_5_3_2-schematic1-bias.sim ] 


 ****     SMALL SIGNAL BIAS SOLUTION       TEMPERATURE =   27.000 DEG C


******************************************************************************



 NODE   VOLTAGE     NODE   VOLTAGE     NODE   VOLTAGE     NODE   VOLTAGE


(N00920)   12.0000 (N00992)    7.0226 (N01021)     .9177 (N01216)    0.0000     

(N01232)    8.2658 (N01425)    9.0619 (N01454)    7.6102 (N01483)    7.5407     

(N01589)    0.0000 (N01652)    1.5990 (N02543)    0.0000 (N024160)    0.0000    




    VOLTAGE SOURCE CURRENTS
    NAME         CURRENT

    V_V1        -6.079E-03
    V_V2         0.000E+00

    TOTAL POWER DISSIPATION   7.29E-02  WATTS



          JOB CONCLUDED

          TOTAL JOB TIME             .17
