
**** 12/06/10 19:19:03 ********* PSpice 9.2 (Mar 2000) ******** ID# 1 ********

 ** Profile: "SCHEMATIC1-Bias"  [ C:\Users\deng\Desktop\\experiments\09300720075\1_5_1-schematic1-bias.sim ] 


 ****     CIRCUIT DESCRIPTION


******************************************************************************




** Creating circuit file "1_5_1-schematic1-bias.sim.cir" 
** WARNING: THIS AUTOMATICALLY GENERATED FILE MAY BE OVERWRITTEN BY SUBSEQUENT SIMULATIONS

*Libraries: 
* Local Libraries :
* From [PSPICE NETLIST] section of d:\orcad92\PSpice\PSpice.ini file:
.lib "nom.lib" 

*Analysis directives: 
.AC DEC 100 1 100meg
.PROBE V(*) I(*) W(*) D(*) NOISE(*) 
.INC ".\1_5_1-SCHEMATIC1.net" 



**** INCLUDING 1_5_1-SCHEMATIC1.net ****
* source 1_5_1
V_V2         N01393 0 DC 0Vdc AC 1mVac 
R_R2         N01898 N00944  1.8k  
C_C2         N01423 N01393  10u  
R_R3         N01642 N01580  47  
C_C3         N03477 N01393  100u  
R_R4         0 N01642  1.5k  
C_C4         0 N01472  100u  
R_R5         0 N01669  68k  
C_C5         0 N01642  100u  
Q_Q1         N01898 N01669 N01580 Q2N2222
R_R6         0 N01927  4.7k  
V_V1         N00944 0 12Vdc
Q_Q2         N01423 N01927 N01472 Q2N2222
R_R7         0 N01472  200  
C_C6         0 N01669  10u  
R_R9         N01423 N00944  1k  
R_R10         N01927 N00944  24k  
R_R11         N03477 N01580  5.1k  
R_R1         N01669 N00944  56k  
C_C1         N01898 N01927  10u  

**** RESUMING 1_5_1-schematic1-bias.sim.cir ****
.END

**** 12/06/10 19:19:03 ********* PSpice 9.2 (Mar 2000) ******** ID# 1 ********

 ** Profile: "SCHEMATIC1-Bias"  [ C:\Users\deng\Desktop\\experiments\09300720075\1_5_1-schematic1-bias.sim ] 


 ****     BJT MODEL PARAMETERS


******************************************************************************




               Q2N2222         
               NPN             
          IS   14.340000E-15 
          BF  255.9          
          NF    1            
         VAF   74.03         
         IKF     .2847       
         ISE   14.340000E-15 
          NE    1.307        
          BR    6.092        
          NR    1            
          RB   10            
          RC    1            
         CJE   22.010000E-12 
         MJE     .377        
         CJC    7.306000E-12 
         MJC     .3416       
          TF  411.100000E-12 
         XTF    3            
         VTF    1.7          
         ITF     .6          
          TR   46.910000E-09 
         XTB    1.5          
          CN    2.42         
           D     .87         


**** 12/06/10 19:19:03 ********* PSpice 9.2 (Mar 2000) ******** ID# 1 ********

 ** Profile: "SCHEMATIC1-Bias"  [ C:\Users\deng\Desktop\\experiments\09300720075\1_5_1-schematic1-bias.sim ] 


 ****     SMALL SIGNAL BIAS SOLUTION       TEMPERATURE =   27.000 DEG C


******************************************************************************



 NODE   VOLTAGE     NODE   VOLTAGE     NODE   VOLTAGE     NODE   VOLTAGE


(N00944)   12.0000 (N01393)    0.0000 (N01423)    6.2843 (N01472)    1.1495     

(N01580)    5.2680 (N01642)    5.1079 (N01669)    5.9458 (N01898)    5.9077     

(N01927)    1.8397 (N03477)    5.2680 




    VOLTAGE SOURCE CURRENTS
    NAME         CURRENT

    V_V2         0.000E+00
    V_V1        -9.632E-03

    TOTAL POWER DISSIPATION   1.16E-01  WATTS



          JOB CONCLUDED

          TOTAL JOB TIME             .17
