
**** 12/10/10 14:57:09 ********* PSpice 9.2 (Mar 2000) ******** ID# 1 ********

 ** Profile: "SCHEMATIC1-Bias"  [ C:\Users\deng\Desktop\\experiments\09300720075\1_5_2-schematic1-bias.sim ] 


 ****     CIRCUIT DESCRIPTION


******************************************************************************




** Creating circuit file "1_5_2-schematic1-bias.sim.cir" 
** WARNING: THIS AUTOMATICALLY GENERATED FILE MAY BE OVERWRITTEN BY SUBSEQUENT SIMULATIONS

*Libraries: 
* Local Libraries :
* From [PSPICE NETLIST] section of d:\orcad92\PSpice\PSpice.ini file:
.lib "nom.lib" 

*Analysis directives: 
.AC DEC 100 1 100meg
.PROBE V(*) I(*) W(*) D(*) NOISE(*) 
.INC ".\1_5_2-SCHEMATIC1.net" 



**** INCLUDING 1_5_2-SCHEMATIC1.net ****
* source 1_5_2
R_R9         0 N02678  180  
C_C3         N01511 N01555  10u  
R_R1         N01951 N01409  1.8k  
R_R10         0 N02570  3.9k  
C_C4         N02242 N01585  100u  
R_R2         N01922 N01409  1k  
R_R11         0 N02644  5.1k  
C_C5         0 N01893  100u  
R_R3         N02349 N01409  62k  
R_R17         N02644 N04678  47  
R_R12         0 N02349  110k  
C_C6         0 N02644  100u  
R_R4         N02507 N01409  2.2k  
C_C8         N02077 N01951  10u  
R_R13         0 N01893  24k  
C_C7         0 N02678  100u  
R_R5         N02570 N01409  28k  
R_R14         0 N01951  3.3k  
R_R15         N01951 N02242  10k  
R_R7         N01585 N01555  0.001  
Q_Q1         N01922 N01951 N01893 Q2N2222
V_V1         N01409 0 12Vdc
R_R6         N01511 N01409  1.2k  
R_R16         0 N02077  1G  
Q_Q2         N02507 N02349 N04678 Q2N2222
C_C1         N01922 N02349  10u  
I_I1         N02077 0 DC 0Adc AC 0.1uAac 
Q_Q3         N01511 N02570 N02678 Q2N2222
R_R8         0 N01585  100  
C_C2         N02507 N02570  10u  

**** RESUMING 1_5_2-schematic1-bias.sim.cir ****
.END

**** 12/10/10 14:57:09 ********* PSpice 9.2 (Mar 2000) ******** ID# 1 ********

 ** Profile: "SCHEMATIC1-Bias"  [ C:\Users\deng\Desktop\\experiments\09300720075\1_5_2-schematic1-bias.sim ] 


 ****     BJT MODEL PARAMETERS


******************************************************************************




               Q2N2222         
               NPN             
          IS   14.340000E-15 
          BF  255.9          
          NF    1            
         VAF   74.03         
         IKF     .2847       
         ISE   14.340000E-15 
          NE    1.307        
          BR    6.092        
          NR    1            
          RB   10            
          RC    1            
         CJE   22.010000E-12 
         MJE     .377        
         CJC    7.306000E-12 
         MJC     .3416       
          TF  411.100000E-12 
         XTF    3            
         VTF    1.7          
         ITF     .6          
          TR   46.910000E-09 
         XTB    1.5          
          CN    2.42         
           D     .87         


**** 12/10/10 14:57:09 ********* PSpice 9.2 (Mar 2000) ******** ID# 1 ********

 ** Profile: "SCHEMATIC1-Bias"  [ C:\Users\deng\Desktop\\experiments\09300720075\1_5_2-schematic1-bias.sim ] 


 ****     SMALL SIGNAL BIAS SOLUTION       TEMPERATURE =   27.000 DEG C


******************************************************************************



 NODE   VOLTAGE     NODE   VOLTAGE     NODE   VOLTAGE     NODE   VOLTAGE


(N01409)   12.0000 (N01511)    7.2824 (N01555)    0.0000 (N01585)    0.0000     

(N01893)    7.1492 (N01922)   11.7040 (N01951)    7.7622 (N02077)    0.0000     

(N02242)    7.7622 (N02349)    7.3434 (N02507)    9.1582 (N02570)    1.3914     

(N02644)    6.6303 (N02678)     .7116 (N04678)    6.6914 




    VOLTAGE SOURCE CURRENTS
    NAME         CURRENT

    V_V1        -8.327E-03

    TOTAL POWER DISSIPATION   9.99E-02  WATTS



          JOB CONCLUDED

          TOTAL JOB TIME             .19
