
**** 12/19/10 23:46:03 ********* PSpice 9.2 (Mar 2000) ******** ID# 1 ********

 ** Profile: "SCHEMATIC1-Bias"  [ C:\Users\deng\Desktop\\experiments\09300720075\1_6-schematic1-bias.sim ] 


 ****     CIRCUIT DESCRIPTION


******************************************************************************




** Creating circuit file "1_6-schematic1-bias.sim.cir" 
** WARNING: THIS AUTOMATICALLY GENERATED FILE MAY BE OVERWRITTEN BY SUBSEQUENT SIMULATIONS

*Libraries: 
* Local Libraries :
* From [PSPICE NETLIST] section of d:\orcad92\PSpice\PSpice.ini file:
.lib "nom.lib" 

*Analysis directives: 
.AC DEC 100 0.001 100K
.PROBE V(*) I(*) W(*) D(*) NOISE(*) 
.INC ".\1_6-SCHEMATIC1.net" 



**** INCLUDING 1_6-SCHEMATIC1.net ****
* source 1_6
X_U1         N01149 N00738 N01359 N00875 N00994 uA741
R_R1         N00711 N00994  51k  
R_R2         N00711 N00738  51k  
R_R3         N00775 N00711  10k  
R_R4         0 N00738  51  
R_R5         0 N01149  51  
V_V1         N01359 0 12Vdc
V_V2         0 N00875 12Vdc
V_V3         N00775 0 DC 0Vdc AC 1Vac 

**** RESUMING 1_6-schematic1-bias.sim.cir ****
.END

**** 12/19/10 23:46:03 ********* PSpice 9.2 (Mar 2000) ******** ID# 1 ********

 ** Profile: "SCHEMATIC1-Bias"  [ C:\Users\deng\Desktop\\experiments\09300720075\1_6-schematic1-bias.sim ] 


 ****     Diode MODEL PARAMETERS


******************************************************************************




               X_U1.dx         X_U1.dy         
          IS  800.000000E-18  800.000000E-18 
          RS    1               1.000000E-03 
         CJO                   10.000000E-12 


**** 12/19/10 23:46:03 ********* PSpice 9.2 (Mar 2000) ******** ID# 1 ********

 ** Profile: "SCHEMATIC1-Bias"  [ C:\Users\deng\Desktop\\experiments\09300720075\1_6-schematic1-bias.sim ] 


 ****     BJT MODEL PARAMETERS


******************************************************************************




               X_U1.qx         
               NPN             
          IS  800.000000E-18 
          BF   93.75         
          NF    1            
          BR    1            
          NR    1            
          CN    2.42         
           D     .87         


**** 12/19/10 23:46:03 ********* PSpice 9.2 (Mar 2000) ******** ID# 1 ********

 ** Profile: "SCHEMATIC1-Bias"  [ C:\Users\deng\Desktop\\experiments\09300720075\1_6-schematic1-bias.sim ] 


 ****     SMALL SIGNAL BIAS SOLUTION       TEMPERATURE =   27.000 DEG C


******************************************************************************



 NODE   VOLTAGE     NODE   VOLTAGE     NODE   VOLTAGE     NODE   VOLTAGE


(N00711)     .0186 (N00738) 14.52E-06 (N00775)    0.0000 (N00875)  -12.0000     

(N00994)     .1321 (N01149)-4.066E-06 (N01359)   12.0000 (X_U1.6)-12.48E-06     

(X_U1.7)     .1322 (X_U1.8)     .1322 (X_U1.9)    0.0000 (X_U1.10)    -.6077    

(X_U1.11)   11.9600                   (X_U1.12)   11.9600                       

(X_U1.13)    -.5938                   (X_U1.14)    -.5938                       

(X_U1.53)   11.0000                   (X_U1.54)  -11.0000                       

(X_U1.90)     .0022                   (X_U1.91)   40.0000                       

(X_U1.92)  -40.0000                   (X_U1.99)    0.0000                   




    VOLTAGE SOURCE CURRENTS
    NAME         CURRENT

    V_V1        -1.337E-03
    V_V2        -1.337E-03
    V_V3         1.860E-06
    X_U1.vb     -1.248E-10
    X_U1.vc      1.087E-11
    X_U1.ve      1.091E-11
    X_U1.vlim    2.225E-06
    X_U1.vlp    -4.000E-11
    X_U1.vln    -4.001E-11

    TOTAL POWER DISSIPATION   3.21E-02  WATTS



          JOB CONCLUDED

          TOTAL JOB TIME             .27
