
**** 12/20/10 00:33:20 ********* PSpice 9.2 (Mar 2000) ******** ID# 1 ********

 ** Profile: "SCHEMATIC1-Bias"  [ C:\Users\deng\Desktop\\experiments\09300720075\1_6_6jifen-schematic1-bias.sim ] 


 ****     CIRCUIT DESCRIPTION


******************************************************************************




** Creating circuit file "1_6_6jifen-schematic1-bias.sim.cir" 
** WARNING: THIS AUTOMATICALLY GENERATED FILE MAY BE OVERWRITTEN BY SUBSEQUENT SIMULATIONS

*Libraries: 
* Local Libraries :
* From [PSPICE NETLIST] section of d:\orcad92\PSpice\PSpice.ini file:
.lib "nom.lib" 

*Analysis directives: 
.TRAN  0 10ms 0 0.01m 
.PROBE V(*) I(*) W(*) D(*) NOISE(*) 
.INC ".\1_6_6jifen-SCHEMATIC1.net" 



**** INCLUDING 1_6_6jifen-SCHEMATIC1.net ****
* source 1_6_6JIFEN
R_R1         N00789 N01024  100k  
R_R         N00735 N00789  510  
R_R3         0 N00828  470  
C_C1         N00789 N01024  0.22u  
V_V1         N00735 0  
+PULSE -0.5 0.5 0 0 0 1m 2m
V_V2         N01116 0 12Vdc
V_V3         0 N00982 12Vdc
X_U2         N00828 N00789 N01116 N00982 N01024 uA741

**** RESUMING 1_6_6jifen-schematic1-bias.sim.cir ****
.END

**** 12/20/10 00:33:20 ********* PSpice 9.2 (Mar 2000) ******** ID# 1 ********

 ** Profile: "SCHEMATIC1-Bias"  [ C:\Users\deng\Desktop\\experiments\09300720075\1_6_6jifen-schematic1-bias.sim ] 


 ****     Diode MODEL PARAMETERS


******************************************************************************




               X_U2.dx         X_U2.dy         
          IS  800.000000E-18  800.000000E-18 
          RS    1               1.000000E-03 
         CJO                   10.000000E-12 


**** 12/20/10 00:33:20 ********* PSpice 9.2 (Mar 2000) ******** ID# 1 ********

 ** Profile: "SCHEMATIC1-Bias"  [ C:\Users\deng\Desktop\\experiments\09300720075\1_6_6jifen-schematic1-bias.sim ] 


 ****     BJT MODEL PARAMETERS


******************************************************************************




               X_U2.qx         
               NPN             
          IS  800.000000E-18 
          BF   93.75         
          NF    1            
          BR    1            
          NR    1            
          CN    2.42         
           D     .87         


**** 12/20/10 00:33:20 ********* PSpice 9.2 (Mar 2000) ******** ID# 1 ********

 ** Profile: "SCHEMATIC1-Bias"  [ C:\Users\deng\Desktop\\experiments\09300720075\1_6_6jifen-schematic1-bias.sim ] 


 ****     INITIAL TRANSIENT SOLUTION       TEMPERATURE =   27.000 DEG C


******************************************************************************



 NODE   VOLTAGE     NODE   VOLTAGE     NODE   VOLTAGE     NODE   VOLTAGE


(N00735)    -.5000 (N00789)    -.4375 (N00828)-74.95E-06 (N00982)  -12.0000     

(N01024)   11.8160 (N01116)   12.0000 (X_U2.6)   -1.4956 (X_U2.7)   13.8460     

(X_U2.8)   13.8460 (X_U2.9)    0.0000 (X_U2.10)    -.6395                       

(X_U2.11)   12.0000                   (X_U2.12)   11.9210                       

(X_U2.13)    -.6395                   (X_U2.14)    -.6118                       

(X_U2.53)   11.0000                   (X_U2.54)  -11.0000                       

(X_U2.90)   40.6060                   (X_U2.91)   40.0000                       

(X_U2.92)  -40.0000                   (X_U2.99)    0.0000                   




    VOLTAGE SOURCE CURRENTS
    NAME         CURRENT

    V_V1         1.225E-04
    V_V2         3.915E-02
    V_V3        -1.337E-03
    X_U2.vb     -1.496E-05
    X_U2.vc     -4.048E-02
    X_U2.ve      2.183E-11
    X_U2.vlim    4.061E-02
    X_U2.vlp     1.180E-05
    X_U2.vln    -8.061E-11

    TOTAL POWER DISSIPATION  -4.14E-01  WATTS



          JOB CONCLUDED

          TOTAL JOB TIME             .37
