
**** 11/22/10 15:18:56 ********* PSpice 9.2 (Mar 2000) ******** ID# 1 ********

 ** Profile: "SCHEMATIC1-Bias"  [ D:\09300720075\2_1_2-schematic1-bias.sim ] 


 ****     CIRCUIT DESCRIPTION


******************************************************************************




** Creating circuit file "2_1_2-schematic1-bias.sim.cir" 
** WARNING: THIS AUTOMATICALLY GENERATED FILE MAY BE OVERWRITTEN BY SUBSEQUENT SIMULATIONS

*Libraries: 
* Local Libraries :
* From [PSPICE NETLIST] section of C:\Program Files\Orcad\PSpice\PSpice.ini file:
.lib "nom.lib" 

*Analysis directives: 
.AC DEC 100 1hz 100meghz
.PROBE V(*) I(*) W(*) D(*) NOISE(*) 
.INC ".\2_1_2-SCHEMATIC1.net" 



**** INCLUDING 2_1_2-SCHEMATIC1.net ****
* source 2_1_2
R_R1         N00771 N00733  430k  
R_R2         N00827 N00733  1.8k  
R_R3         0 N00771  130K  
R_R4         0 N00798  220  
V_VCC         N00733 0 12Vdc
C_C1         0 N00798  62u  
V_V1         N01246 0 DC 0Vdc AC 5mVac 
C_C2         N01246 N00827  10u  
C_C3         N00771 0  10u  
M_M1         N00827 N00771 N00798 N00798 M2N6660

**** RESUMING 2_1_2-schematic1-bias.sim.cir ****
.END

**** 11/22/10 15:18:56 ********* PSpice 9.2 (Mar 2000) ******** ID# 1 ********

 ** Profile: "SCHEMATIC1-Bias"  [ D:\09300720075\2_1_2-schematic1-bias.sim ] 


 ****     MOSFET MODEL PARAMETERS


******************************************************************************




               M2N6660         
               NMOS            
       LEVEL    3            
           L    2.000000E-06 
           W     .32         
         VTO    1.8          
          KP    1.047000E-06 
       GAMMA    0            
         PHI     .6          
      LAMBDA    0            
          RD     .4672       
          RS     .02         
          RG  209.5          
          RB    1.000000E-03 
         RDS    6.000000E+06 
          IS   10.000000E-15 
          JS    0            
          PB     .8          
        PBSW     .8          
         CBD  118.000000E-12 
          CJ    0            
        CJSW    0            
        CGSO    1.885000E-12 
        CGDO    7.564000E-12 
        CGBO    0            
         TOX    2.000000E-06 
          XJ    0            
       UCRIT   10.000000E+03 
       DELTA    0            
         ETA    0            
      DIOMOD    1            
         VFB    0            
        LETA    0            
        WETA    0            
          U0    0            
        TEMP    0            
         VDD    0            
       XPART    0            


**** 11/22/10 15:18:56 ********* PSpice 9.2 (Mar 2000) ******** ID# 1 ********

 ** Profile: "SCHEMATIC1-Bias"  [ D:\09300720075\2_1_2-schematic1-bias.sim ] 


 ****     SMALL SIGNAL BIAS SOLUTION       TEMPERATURE =   27.000 DEG C


******************************************************************************



 NODE   VOLTAGE     NODE   VOLTAGE     NODE   VOLTAGE     NODE   VOLTAGE


(N00733)   12.0000 (N00771)    2.7857 (N00798)     .7799 (N00827)    5.6187     

(N01246)    0.0000 




    VOLTAGE SOURCE CURRENTS
    NAME         CURRENT

    V_VCC       -3.567E-03
    V_V1         0.000E+00

    TOTAL POWER DISSIPATION   4.28E-02  WATTS



          JOB CONCLUDED

          TOTAL JOB TIME             .17
