
**** 11/19/10 15:09:58 ********* PSpice 9.2 (Mar 2000) ******** ID# 1 ********

 ** Profile: "SCHEMATIC1-Bias"  [ D:\09300720075\2_1_1-schematic1-bias.sim ] 


 ****     CIRCUIT DESCRIPTION


******************************************************************************




** Creating circuit file "2_1_1-schematic1-bias.sim.cir" 
** WARNING: THIS AUTOMATICALLY GENERATED FILE MAY BE OVERWRITTEN BY SUBSEQUENT SIMULATIONS

*Libraries: 
* Local Libraries :
* From [PSPICE NETLIST] section of C:\Program Files\Orcad\PSpice\PSpice.ini file:
.lib "nom.lib" 

*Analysis directives: 
.AC DEC 100 1hz 100meghz
.PROBE V(*) I(*) W(*) D(*) NOISE(*) 
.INC ".\2_1_1-SCHEMATIC1.net" 



**** INCLUDING 2_1_1-SCHEMATIC1.net ****
* source 2_1_1
R_R1         N00771 N00733  15k  
V_VCC         N00733 0 12Vdc
R_R2         N00827 N00733  1.5k  
R_R3         0 N00771  3.6k  
R_R4         0 N00798  430  
C_C1         0 N00798  220u  
C_C2         N01246 N00827  47u  
C_C3         N00771 0  4.7u  
V_V2         N01246 0 DC 0Vdc AC 5mvac 
Q_Q1         N00827 N00771 N00798 Q2N2222

**** RESUMING 2_1_1-schematic1-bias.sim.cir ****
.END

**** 11/19/10 15:09:58 ********* PSpice 9.2 (Mar 2000) ******** ID# 1 ********

 ** Profile: "SCHEMATIC1-Bias"  [ D:\09300720075\2_1_1-schematic1-bias.sim ] 


 ****     BJT MODEL PARAMETERS


******************************************************************************




               Q2N2222         
               NPN             
          IS   14.340000E-15 
          BF  255.9          
          NF    1            
         VAF   74.03         
         IKF     .2847       
         ISE   14.340000E-15 
          NE    1.307        
          BR    6.092        
          NR    1            
          RB   10            
          RC    1            
         CJE   22.010000E-12 
         MJE     .377        
         CJC    7.306000E-12 
         MJC     .3416       
          TF  411.100000E-12 
         XTF    3            
         VTF    1.7          
         ITF     .6          
          TR   46.910000E-09 
         XTB    1.5          
          CN    2.42         
           D     .87         


**** 11/19/10 15:09:58 ********* PSpice 9.2 (Mar 2000) ******** ID# 1 ********

 ** Profile: "SCHEMATIC1-Bias"  [ D:\09300720075\2_1_1-schematic1-bias.sim ] 


 ****     SMALL SIGNAL BIAS SOLUTION       TEMPERATURE =   27.000 DEG C


******************************************************************************



 NODE   VOLTAGE     NODE   VOLTAGE     NODE   VOLTAGE     NODE   VOLTAGE


(N00733)   12.0000 (N00771)    2.2613 (N00798)    1.5829 (N00827)    6.5099     

(N01246)    0.0000 




    VOLTAGE SOURCE CURRENTS
    NAME         CURRENT

    V_VCC       -4.309E-03
    V_V2         0.000E+00

    TOTAL POWER DISSIPATION   5.17E-02  WATTS



          JOB CONCLUDED

          TOTAL JOB TIME             .20
